hour, t(sec), V1, VAngle1, V2, VAngle2, V3, VAngle3, VN, VNAngle, I1, IAngle1, I2, IAngle2, I3, IAngle3, IN, INAngle
1, 0.00000, 7343.6, -33.7721, 7340.5, -153.678, 7352.3, 86.2999, 0.542029, -157.409, 170.398, -45.8834, 155.089, -164.098, 164.507, 74.7442, 14.1403, -25.6245
2, 0.00000, 7367.98, -33.451, 7359.1, -153.338, 7375.94, 86.6707, 0.733798, -172.289, 159.619, -44.7024, 146.491, -162.91, 153.723, 76.054, 12.1434, -30.3603
3, 0.00000, 7380.45, -33.2375, 7372.64, -153.124, 7389.07, 86.8772, 0.713069, -168.476, 162.673, -44.82, 150.319, -163.189, 157.537, 75.8195, 11.4417, -28.1799
4, 0.00000, 7383.81, -33.1475, 7379.12, -153.016, 7395.77, 86.9548, 0.743234, -156.251, 165.716, -45.0371, 152.066, -163.311, 161.178, 75.5026, 12.7599, -22.4747
5, 0.00000, 7387.49, -33.1116, 7380.8, -152.994, 7397, 86.997, 0.702681, -163.946, 162.049, -44.6602, 151.475, -163.23, 158.672, 75.7908, 9.93157, -22.449
6, 0.00000, 7392.11, -33.0379, 7385.13, -152.957, 7397.56, 87.0535, 0.549441, -172.948, 166.595, -45.0346, 155.751, -163.671, 165.039, 75.2148, 10.5852, -11.3659
7, 0.00000, 7383.99, -33.1626, 7377.42, -153.054, 7392.61, 86.9407, 0.668774, -165.423, 168.025, -45.2555, 154.338, -163.584, 164.926, 75.1386, 13.0271, -15.804
8, 0.00000, 7372.01, -33.3362, 7366.61, -153.186, 7385.7, 86.7813, 0.853225, -157.28, 176.6, -46.121, 157.368, -163.996, 167.15, 74.8106, 17.6303, -32.1051
9, 0.00000, 7348.59, -33.6851, 7345.43, -153.506, 7366.38, 86.4322, 0.971773, -150.003, 176.346, -46.349, 157.049, -164.199, 167.606, 74.5102, 17.7334, -29.903
10, 0.00000, 7333.12, -33.9419, 7329.56, -153.892, 7336.85, 86.1101, 0.351008, -173.385, 174.241, -46.3815, 154.38, -164.207, 166.099, 74.4383, 18.1417, -26.6902
11, 0.00000, 7307.86, -34.2957, 7307.86, -154.194, 7318.75, 85.7586, 0.563146, -145.18, 176.228, -46.7692, 155.054, -164.482, 170.369, 73.809, 19.827, -18.4376
12, 0.00000, 7288.09, -34.6226, 7285.71, -154.576, 7291.95, 85.4193, 0.313961, -170.291, 183.274, -47.5347, 158.914, -165.133, 172.042, 73.4619, 22.0778, -30.0272
13, 0.00000, 7266.35, -34.91, 7269.07, -154.837, 7275.39, 85.11, 0.411013, -133.343, 174.185, -47.0447, 149.161, -164.292, 163.582, 73.9741, 22.888, -27.7054
14, 0.00000, 7244.56, -35.2141, 7250.41, -155.186, 7250.3, 84.7599, 0.262961, -93.638, 166.66, -46.623, 142.643, -163.774, 157.699, 74.3021, 22.1589, -24.471
15, 0.00000, 7243.07, -35.2203, 7250.89, -155.178, 7251.29, 84.7475, 0.374128, -94.8335, 163.179, -46.3181, 136.058, -162.899, 154.029, 74.6631, 25.2428, -22.0445
16, 0.00000, 7237.04, -35.3085, 7244.69, -155.223, 7249.74, 84.6834, 0.545985, -112.198, 164.678, -46.4906, 141.99, -163.707, 158.199, 74.1904, 21.385, -19.2604
17, 0.00000, 7239.44, -35.3017, 7244.76, -155.235, 7249.03, 84.6966, 0.415589, -117.952, 158.026, -45.8792, 132.816, -162.475, 150.036, 75.0534, 23.6314, -21.0203
18, 0.00000, 7243.52, -35.276, 7245.77, -155.241, 7248.27, 84.7269, 0.222982, -129.311, 149.711, -44.9852, 127.167, -161.612, 144.617, 75.7066, 21.71, -15.5154
19, 0.00000, 7249.07, -35.226, 7246.56, -155.256, 7244.73, 84.7765, 0.176996, 88.1896, 166.36, -46.5684, 147.839, -164.416, 164.905, 73.6558, 18.5136, -7.09149
20, 0.00000, 7263.59, -34.9992, 7261.69, -155.012, 7261.37, 85.008, 0.114576, 118.415, 169.456, -46.681, 149.332, -164.413, 168.479, 73.4901, 20.3818, -5.29134
21, 0.00000, 7259.61, -35.0832, 7255.71, -155.036, 7262.82, 84.9699, 0.348711, -177.244, 161.884, -46.0743, 143.292, -163.723, 158.682, 74.3545, 17.9882, -12.7006
22, 0.00000, 7280.5, -34.8153, 7271.76, -154.782, 7279.93, 85.2643, 0.460424, 156.348, 161.85, -45.9008, 142.237, -163.409, 156.665, 74.7624, 18.3927, -18.0107
23, 0.00000, 7312.22, -34.3439, 7302.69, -154.282, 7314.33, 85.7559, 0.57129, 169.249, 151.085, -44.5047, 131.878, -161.656, 147.347, 76.0862, 18.5335, -13.6888
24, 0.00000, 7335.57, -33.9569, 7328.76, -153.881, 7340.48, 86.1311, 0.54058, -177.094, 147.017, -43.7734, 128.209, -160.813, 141.312, 77.0794, 17.7528, -20.1293
25, 0.00000, 7357.76, -33.6528, 7347.2, -153.526, 7366.4, 86.4881, 0.845895, -174.218, 135.197, -42.085, 117.523, -158.712, 127.885, 79.2096, 16.6406, -27.3951
26, 0.00000, 7370.73, -33.4149, 7363.84, -153.323, 7377.42, 86.6821, 0.602348, -171.216, 129.537, -41.0816, 115.568, -158.199, 124.685, 79.8721, 13.3609, -23.3734
27, 0.00000, 7383.59, -33.2265, 7374.02, -153.085, 7394.39, 86.9152, 0.880217, -168, 136.665, -41.961, 123.152, -159.422, 131.127, 79.0253, 12.7574, -27.7234
28, 0.00000, 7393.28, -33.0869, 7382.83, -152.979, 7399.98, 87.0426, 0.751756, -176.685, 130.415, -40.9744, 117.692, -158.357, 124.877, 80.1055, 12.069, -29.2857
29, 0.00000, 7396.72, -33.0313, 7386.14, -152.93, 7402.69, 87.0959, 0.728427, -177.975, 131.078, -41.0227, 120.141, -158.781, 128.155, 79.6123, 10.5848, -19.0912
30, 0.00000, 7402.22, -32.955, 7390.67, -152.896, 7403.14, 87.1564, 0.605682, 166.097, 130.293, -40.8567, 121.232, -158.965, 128.477, 79.6073, 8.89443, -15.5167
31, 0.00000, 7388.35, -33.1359, 7379.86, -153.049, 7393.73, 86.9692, 0.616656, -177.049, 143.44, -42.7528, 130.28, -160.548, 138.42, 78.0559, 12.3428, -25.6118
32, 0.00000, 7369.14, -33.3347, 7370.85, -153.206, 7383.86, 86.722, 0.688895, -136.445, 148.367, -43.4943, 131.552, -160.877, 141.168, 77.4931, 15.7549, -28.0017
33, 0.00000, 7343.96, -33.7368, 7345.02, -153.664, 7352.27, 86.2946, 0.407393, -139.113, 157.348, -44.7318, 138.617, -162.194, 152.533, 75.8712, 17.8168, -17.0019
34, 0.00000, 7323.3, -34.0574, 7324.33, -153.992, 7330.75, 85.9702, 0.369577, -140.369, 163.097, -45.5182, 142.526, -162.934, 157.521, 75.1264, 19.3988, -17.8652
35, 0.00000, 7297.41, -34.4639, 7298.06, -154.431, 7301.19, 85.5492, 0.205086, -144.839, 162.494, -45.7333, 141.965, -163.162, 157.948, 74.807, 19.599, -14.9484
36, 0.00000, 7274.79, -34.8492, 7271.27, -154.794, 7279, 85.2052, 0.3775, -172.284, 163.903, -46.1378, 142.265, -163.446, 158.071, 74.5571, 20.3123, -18.2083
37, 0.00000, 7252.63, -35.1964, 7248.13, -155.16, 7254.36, 84.855, 0.331653, 171.389, 162.4, -46.2505, 137.601, -163.091, 154.128, 74.7261, 22.9445, -22.1484
38, 0.00000, 7230.32, -35.5052, 7227.85, -155.488, 7231.03, 84.5221, 0.199272, 169.006, 168.034, -46.9534, 144.432, -164.192, 162.282, 73.6987, 22.2175, -16.7056
39, 0.00000, 7208.22, -35.7784, 7211.29, -155.722, 7215.61, 84.2301, 0.338113, -130.114, 169.88, -47.2941, 142.6, -164.128, 161.957, 73.5246, 25.4574, -19.5709
40, 0.00000, 7197.09, -35.9379, 7200.96, -155.988, 7193.69, 84.0087, 0.248272, 9.24545, 166.771, -47.1427, 137.911, -163.716, 155.812, 74.0046, 26.4517, -24.9114
41, 0.00000, 7184.99, -36.0904, 7192.12, -156.101, 7187.21, 83.8534, 0.259331, -49.2621, 154.247, -46.0379, 128.733, -162.475, 147.559, 74.7762, 24.2257, -17.8117
42, 0.00000, 7189.36, -36.0233, 7196.57, -156.068, 7188.01, 83.9017, 0.328025, -16.2061, 158.803, -46.4487, 131.981, -162.939, 149.864, 74.5637, 24.953, -22.0246
43, 0.00000, 7205.28, -35.8838, 7202.38, -155.932, 7198.86, 84.1118, 0.264893, 75.1701, 162.473, -46.7108, 137.516, -163.609, 155.272, 74.1326, 23.248, -19.3812
44, 0.00000, 7221.86, -35.6935, 7213.82, -155.761, 7211.01, 84.3286, 0.485854, 88.3734, 156.425, -46.006, 132.848, -162.836, 149.399, 74.9113, 21.928, -19.974
45, 0.00000, 7224.57, -35.6652, 7214.92, -155.695, 7216.93, 84.3882, 0.461941, 113.931, 160.949, -46.422, 137.13, -163.381, 154.572, 74.3903, 22.2519, -18.1912
46, 0.00000, 7244.39, -35.3552, 7237.29, -155.334, 7243.34, 84.707, 0.374733, 152.008, 146.99, -44.755, 126.026, -161.493, 142.034, 76.0113, 20.0264, -16.4594
47, 0.00000, 7276.35, -34.8756, 7269.1, -154.843, 7276.46, 85.1934, 0.408273, 158.918, 148.402, -44.5868, 127.343, -161.359, 139.452, 76.6789, 19.4594, -28.1487
48, 0.00000, 7299.62, -34.4985, 7295.02, -154.48, 7299.47, 85.5441, 0.270995, 158.449, 143.247, -43.7264, 123.418, -160.47, 136.013, 77.3724, 18.5415, -24.03
49, 0.00000, 7323.23, -34.1422, 7318.5, -154.095, 7326.12, 85.9166, 0.36852, 178.938, 133.072, -42.1366, 115.203, -158.686, 125.766, 79.1551, 16.8467, -26.9377
50, 0.00000, 7344.25, -33.835, 7337.75, -153.786, 7346.51, 86.2368, 0.424986, 173.181, 128.352, -41.2171, 111.79, -157.76, 121.712, 80.0651, 15.7176, -26.4348
51, 0.00000, 7356.39, -33.6217, 7352.22, -153.55, 7362.14, 86.4455, 0.452946, -167.57, 125.154, -40.5607, 109.311, -157.059, 118.225, 80.8349, 15.1129, -28.7687
52, 0.00000, 7367.89, -33.4965, 7358.29, -153.427, 7370.84, 86.6073, 0.587272, 173.035, 121.761, -39.8995, 107.55, -156.563, 116.104, 81.3559, 13.6238, -26.5741
53, 0.00000, 7370.96, -33.4047, 7365.86, -153.311, 7378.67, 86.6807, 0.571088, -164.414, 116.277, -38.8188, 103.45, -155.489, 112.375, 82.1529, 12.6332, -20.7927
54, 0.00000, 7375.53, -33.3291, 7370.69, -153.263, 7380.36, 86.7397, 0.439921, -171.572, 119.234, -39.3289, 105.025, -155.847, 113.59, 81.9485, 13.724, -26.2501
55, 0.00000, 7369.46, -33.3821, 7368.37, -153.292, 7378.69, 86.6736, 0.500281, -147.515, 121.647, -39.7754, 109.96, -157.026, 119.745, 80.7081, 11.8709, -12.5135
56, 0.00000, 7352.23, -33.648, 7351.14, -153.538, 7363.6, 86.4183, 0.603653, -148.315, 133.487, -41.8535, 114.776, -158.209, 124.391, 79.7177, 17.6871, -31.6479
57, 0.00000, 7325.29, -34.0396, 7326.64, -153.919, 7338.82, 86.0151, 0.653804, -139.526, 141.089, -43.1576, 119.82, -159.458, 134.332, 77.8883, 20.2326, -20.8733
58, 0.00000, 7298.98, -34.4424, 7300.42, -154.366, 7307.81, 85.5884, 0.4301, -140.051, 149.933, -44.4917, 125.277, -160.724, 141.674, 76.6258, 23.1302, -21.8254
59, 0.00000, 7268.68, -34.8528, 7274.8, -154.788, 7278.46, 85.1388, 0.41265, -112.131, 159.245, -45.7152, 135.021, -162.506, 148.59, 75.5064, 22.3438, -28.6902
60, 0.00000, 7243.56, -35.2368, 7249.07, -155.174, 7252.87, 84.7582, 0.400518, -115.385, 159.375, -45.9874, 135.203, -162.795, 151.276, 74.9478, 22.5438, -22.2229
61, 0.00000, 7224.62, -35.5235, 7229.29, -155.482, 7231.18, 84.4658, 0.280752, -112.35, 166.569, -46.8468, 140.416, -163.704, 155.632, 74.3034, 23.974, -27.5489
62, 0.00000, 7198.42, -35.8814, 7206.32, -155.871, 7203.21, 84.0683, 0.29328, -70.7599, 164.263, -46.8871, 135.02, -163.252, 154.487, 74.1581, 27.1329, -22.0824
63, 0.00000, 7189.93, -36.0488, 7193.29, -156.075, 7188.8, 83.9141, 0.131146, -5.25723, 165.498, -47.1182, 135.174, -163.409, 152.867, 74.2415, 27.6964, -27.4027
64, 0.00000, 7174.51, -36.2392, 7181.5, -156.233, 7178.49, 83.7149, 0.246489, -69.696, 165.072, -47.1955, 133.656, -163.298, 151.502, 74.2487, 28.7535, -28.4723
65, 0.00000, 7169.75, -36.2877, 7178.8, -156.344, 7168.15, 83.6185, 0.41563, -16.8096, 166.004, -47.31, 133.076, -163.294, 153.361, 74.0003, 30.2357, -25.1541
66, 0.00000, 7179.38, -36.2091, 7182.41, -156.302, 7171.09, 83.7206, 0.446823, 25.4345, 158.593, -46.5825, 128.723, -162.618, 147.9, 74.6731, 27.5476, -23.5609
67, 0.00000, 7188.6, -36.1037, 7187.93, -156.187, 7179.55, 83.8574, 0.398094, 46.5827, 167.167, -47.2831, 140.136, -164.134, 157.453, 73.7526, 24.7528, -23.743
68, 0.00000, 7201.69, -35.886, 7203.93, -155.878, 7203.56, 84.1026, 0.0850603, -111.752, 165.059, -46.9375, 139.182, -163.794, 154.846, 74.1622, 23.7428, -26.1649
69, 0.00000, 7204.25, -35.9121, 7199.78, -155.883, 7205.21, 84.1355, 0.30429, 164.064, 165.642, -47.0233, 140.891, -164.019, 154.696, 74.1941, 22.547, -29.582
70, 0.00000, 7227.31, -35.5883, 7222.21, -155.558, 7228.17, 84.4646, 0.330254, 162.419, 152.154, -45.5023, 127.986, -161.971, 139.673, 76.1498, 22.239, -34.2843
71, 0.00000, 7247.85, -35.2613, 7244.95, -155.289, 7243.52, 84.7448, 0.203793, 93.8604, 152.474, -45.3126, 129.628, -162.051, 141.981, 76.0554, 20.9709, -30.214
72, 0.00000, 7267.95, -34.9713, 7264.42, -154.948, 7268.8, 85.0665, 0.249597, 166.441, 142.729, -44.0028, 121.28, -160.436, 133.475, 77.3934, 19.9325, -28.4887
73, 0.00000, 7290.29, -34.6529, 7285.01, -154.574, 7296.22, 85.4263, 0.518848, -172.168, 134.369, -42.6887, 114.817, -158.953, 127.963, 78.4464, 18.5945, -22.0084
74, 0.00000, 7306.59, -34.4024, 7301.58, -154.356, 7309.24, 85.6579, 0.375063, 176.888, 132.858, -42.3042, 114.482, -158.739, 126.325, 78.8724, 17.4115, -23.6536
75, 0.00000, 7321.86, -34.138, 7320.02, -154.107, 7324.34, 85.8918, 0.223744, -172.87, 130.358, -41.7509, 112.573, -158.176, 122.297, 79.7137, 16.7936, -29.7062
76, 0.00000, 7331.69, -34.0176, 7326.91, -153.956, 7336.08, 86.0489, 0.427554, -174.56, 124.278, -40.714, 107.099, -156.853, 117.49, 80.6823, 16.4202, -26.1027
77, 0.00000, 7338.26, -33.8978, 7335.09, -153.857, 7341.2, 86.1465, 0.300121, -174.652, 125.767, -40.8578, 109.268, -157.271, 120.801, 80.1524, 15.9667, -20.0422
78, 0.00000, 7349.91, -33.7362, 7344.74, -153.744, 7346.69, 86.2963, 0.256702, 129.536, 127.962, -41.1154, 110.353, -157.442, 121.231, 80.1859, 16.7058, -24.8523
79, 0.00000, 7355.82, -33.6055, 7353.6, -153.526, 7363.35, 86.4524, 0.463827, -156.511, 131.345, -41.5204, 113.052, -157.853, 124.488, 79.7228, 17.3964, -24.4295
80, 0.00000, 7344.56, -33.801, 7340.91, -153.81, 7341.89, 86.2201, 0.193519, 126.62, 132.468, -41.839, 114.529, -158.374, 126.076, 79.3096, 16.9821, -23.1737
81, 0.00000, 7317.48, -34.2229, 7313.74, -154.217, 7316.34, 85.8068, 0.214689, 147.351, 134.924, -42.4872, 113.609, -158.471, 126.615, 78.9319, 20.0419, -25.2934
82, 0.00000, 7284.09, -34.7348, 7280.05, -154.743, 7281.35, 85.2899, 0.213264, 128.098, 139.096, -43.3979, 117.951, -159.697, 132.442, 77.6874, 19.9887, -20.7991
83, 0.00000, 7254.86, -35.1881, 7248.76, -155.237, 7246.86, 84.8299, 0.366982, 93.7864, 152.444, -45.2812, 127.028, -161.609, 144.462, 75.8019, 23.6778, -20.6497
84, 0.00000, 7255.75, -35.2054, 7246.39, -155.207, 7251.14, 84.8603, 0.443621, 133.004, 151.838, -45.2172, 126.898, -161.55, 144.993, 75.7557, 23.4565, -18.3824
85, 0.00000, 7256.79, -35.1348, 7253.5, -155.162, 7252.34, 84.8744, 0.214678, 100.576, 148.798, -44.8482, 121.839, -160.688, 139.482, 76.4502, 25.1102, -22.5511
86, 0.00000, 7261.97, -35.0429, 7260, -154.995, 7266.13, 84.9968, 0.315372, -166.558, 146.071, -44.4523, 122.927, -160.755, 139.294, 76.5407, 21.9021, -19.5931
87, 0.00000, 7253.42, -35.1375, 7255.02, -155.104, 7257.69, 84.8692, 0.203963, -136.014, 145.25, -44.4133, 123.946, -161.016, 138.175, 76.6027, 20.0422, -22.145
88, 0.00000, 7264.01, -34.9857, 7264.38, -154.999, 7262.73, 85.0049, 0.0465268, 78.8307, 152.813, -45.1543, 129.797, -161.876, 145.314, 75.8162, 21.4932, -21.386
89, 0.00000, 7265.25, -34.9463, 7267.79, -154.952, 7265.81, 85.0331, 0.070687, -58.3562, 149.223, -44.7238, 129.021, -161.726, 147.09, 75.6192, 20.2626, -8.45998
90, 0.00000, 7276.18, -34.8222, 7273.98, -154.807, 7276.76, 85.2017, 0.175557, 168.795, 156.235, -45.3693, 136.069, -162.635, 150.154, 75.4023, 18.8855, -20.0935
91, 0.00000, 7285.08, -34.6772, 7283.34, -154.645, 7287.67, 85.3524, 0.23545, -170.956, 162.249, -45.8463, 140.553, -163.111, 156.805, 74.7997, 20.5173, -16.7827
92, 0.00000, 7288.03, -34.6092, 7288.69, -154.605, 7288.79, 85.3888, 0.0579406, -154.901, 162.408, -45.8074, 141.637, -163.224, 156.817, 74.8331, 19.5627, -17.7764
93, 0.00000, 7284.38, -34.6474, 7286.73, -154.633, 7287.02, 85.344, 0.11569, -113.689, 164.047, -45.996, 142.798, -163.403, 155.868, 74.894, 19.5835, -25.0867
94, 0.00000, 7294.12, -34.5543, 7290.8, -154.522, 7296.01, 85.4866, 0.271155, 177.202, 161.999, -45.7396, 142.475, -163.275, 155.775, 74.9996, 18.1581, -21.1637
95, 0.00000, 7307.82, -34.3675, 7302.65, -154.359, 7306.25, 85.6734, 0.26078, 145.559, 154.459, -44.8681, 139.186, -162.75, 149.394, 75.8177, 14.2136, -22.3339
96, 0.00000, 7317.03, -34.2029, 7313.92, -154.167, 7319.47, 85.8385, 0.278859, -178.599, 156.902, -45.0052, 138.376, -162.5, 149.505, 75.9152, 17.1079, -26.217
97, 0.00000, 7334.05, -33.903, 7334.98, -153.896, 7335.23, 86.0945, 0.0613943, -143.445, 151.923, -44.2851, 133.407, -161.631, 144.23, 76.7076, 17.1598, -26.8555
98, 0.00000, 7347.87, -33.7492, 7343.31, -153.73, 7347.85, 86.2934, 0.267306, 161.588, 140.468, -42.8494, 123.021, -159.872, 135.247, 77.9978, 16.5659, -19.6564
99, 0.00000, 7359.08, -33.5685, 7354.46, -153.547, 7359.22, 86.4753, 0.265679, 162.43, 144.411, -43.188, 130.321, -160.922, 138.967, 77.6416, 13.1619, -25.5834
100, 0.00000, 7371.71, -33.4259, 7361.48, -153.344, 7375.7, 86.6888, 0.648169, 175.827, 138.28, -42.3338, 124.645, -159.872, 132.453, 78.6717, 12.7809, -28.737
101, 0.00000, 7373.63, -33.3591, 7366.67, -153.274, 7379.55, 86.7347, 0.571806, -172.876, 140.442, -42.5439, 127.801, -160.333, 136.83, 78.0921, 12.0733, -19.7882
102, 0.00000, 7380.54, -33.2494, 7372.42, -153.151, 7387.37, 86.8595, 0.660685, -172.85, 152.074, -43.8318, 137.601, -161.679, 147.473, 76.8421, 13.5887, -21.4561
103, 0.00000, 7383.09, -33.2164, 7373.9, -153.162, 7384.68, 86.8768, 0.523763, 169.516, 157.822, -44.3963, 144.029, -162.514, 154.821, 76.0572, 13.1525, -15.1222
104, 0.00000, 7371.01, -33.4046, 7360.87, -153.369, 7370.1, 86.6852, 0.508227, 157.066, 178.142, -46.2975, 162.406, -164.633, 172.06, 74.3386, 14.3174, -25.4378
105, 0.00000, 7358.55, -33.5973, 7349.07, -153.532, 7361.07, 86.5036, 0.575688, 171.455, 176.089, -46.2803, 157.607, -164.274, 168.979, 74.4619, 16.8641, -25.1975
106, 0.00000, 7342.78, -33.8156, 7335.85, -153.777, 7343.7, 86.2538, 0.411624, 166.119, 185.562, -47.1239, 164.618, -165.109, 177.632, 73.5952, 19.0472, -24.4652
107, 0.00000, 7325.63, -34.0211, 7324.53, -153.982, 7329.3, 86.0077, 0.253568, -159.659, 190.34, -47.5758, 170.619, -165.794, 185.972, 72.8033, 18.5953, -14.6874
108, 0.00000, 7333.37, -34.0085, 7321.27, -153.922, 7336.93, 86.1222, 0.736262, 171.785, 190.602, -47.5866, 170.52, -165.714, 182.757, 73.1215, 18.1842, -25.797
109, 0.00000, 7309, -34.2945, 7305.82, -154.211, 7316.44, 85.7725, 0.504627, -160.975, 196.604, -48.1446, 175.171, -166.302, 191.502, 72.2727, 20.0767, -15.9291
110, 0.00000, 7287.92, -34.6601, 7281.09, -154.664, 7284.36, 85.3866, 0.330319, 132.82, 195.035, -48.3321, 173.256, -166.475, 187.615, 72.2835, 19.7781, -22.2665
111, 0.00000, 7263.89, -34.9903, 7260.51, -155.042, 7256.82, 85.0067, 0.297282, 77.8902, 200.498, -48.9019, 174.843, -166.87, 190.436, 71.8446, 23.0749, -25.2829
112, 0.00000, 7239.51, -35.3739, 7233.83, -155.416, 7232.37, 84.6444, 0.338171, 95.8187, 207.407, -49.5445, 180.76, -167.567, 196.977, 71.1895, 23.8936, -25.4796
113, 0.00000, 7244.28, -35.3138, 7237.42, -155.36, 7236.15, 84.7107, 0.381344, 97.0771, 205.035, -49.3655, 181.367, -167.578, 199.339, 71.0839, 21.8754, -16.0198
114, 0.00000, 7242.6, -35.2691, 7242.96, -155.3, 7239.45, 84.7122, 0.126476, 48.5007, 204.776, -49.2917, 181.461, -167.539, 198.922, 71.1178, 21.643, -16.5504
115, 0.00000, 7286.27, -34.6078, 7286.31, -154.588, 7288.44, 85.403, 0.144234, -155.982, 206.148, -48.9045, 185.697, -167.358, 201.225, 71.4391, 19.095, -15.9258
116, 0.00000, 7287.9, -34.5997, 7286.66, -154.568, 7290.71, 85.4262, 0.220376, -165.025, 199.55, -48.5245, 179.819, -166.918, 195.358, 71.8041, 18.598, -14.3969
117, 0.00000, 7282.74, -34.6886, 7281.11, -154.608, 7290.58, 85.3659, 0.451868, -155.573, 190.4, -48.0203, 172.858, -166.405, 180.488, 72.787, 16.0609, -37.459
118, 0.00000, 7294.5, -34.562, 7287.71, -154.512, 7296.59, 85.5123, 0.43302, 171.234, 186.403, -47.6706, 169.707, -166.072, 181.167, 72.8271, 15.341, -21.2675
119, 0.00000, 7310.79, -34.3234, 7303.01, -154.249, 7315.13, 85.7711, 0.556769, 177.799, 183.454, -47.3173, 165.422, -165.514, 173.569, 73.5924, 16.4325, -36.3488
120, 0.00000, 7329.23, -33.9935, 7326.28, -153.9, 7337.92, 86.0772, 0.538959, -157.594, 174.222, -46.379, 157.523, -164.522, 167.524, 74.3005, 15.3463, -26.6634
121, 0.00000, 7342.56, -33.8189, 7336.75, -153.758, 7346.38, 86.2543, 0.446629, -179.019, 169.788, -45.906, 152.683, -163.917, 161.792, 74.9523, 15.6415, -30.7428
122, 0.00000, 7357.16, -33.6141, 7349.62, -153.539, 7361.68, 86.4784, 0.54683, -179.242, 157.953, -44.6739, 142.844, -162.617, 151.233, 76.1821, 13.9353, -29.5448
123, 0.00000, 7369.27, -33.4127, 7362.55, -153.319, 7376.23, 86.684, 0.601966, -170.476, 156.428, -44.3847, 142.634, -162.447, 149.728, 76.4848, 12.7846, -32.4139
