hour, t(sec), S1 (kVA), Ang1, S2 (kVA), Ang2, S3 (kVA), Ang3
1, 0.00000, 1251.33, -167.889, 1138.43, -169.579, 1209.5, -168.444
2, 0.00000, 1176.07, -168.749, 1078.04, -170.428, 1133.85, -169.383
3, 0.00000, 1200.6, -168.418, 1108.25, -169.935, 1164.05, -168.942
4, 0.00000, 1223.62, -168.11, 1122.12, -169.705, 1192.04, -168.548
5, 0.00000, 1197.14, -168.451, 1118.01, -169.764, 1173.7, -168.794
6, 0.00000, 1231.49, -168.003, 1150.24, -169.286, 1220.89, -168.161
7, 0.00000, 1240.7, -167.907, 1138.61, -169.47, 1219.23, -168.198
8, 0.00000, 1301.89, -167.215, 1159.27, -169.19, 1234.52, -168.029
9, 0.00000, 1295.89, -167.336, 1153.59, -169.306, 1234.65, -168.078
10, 0.00000, 1277.73, -167.56, 1131.54, -169.685, 1218.65, -168.328
11, 0.00000, 1287.85, -167.526, 1133.11, -169.712, 1246.89, -168.05
12, 0.00000, 1335.72, -167.088, 1157.8, -169.443, 1254.52, -168.043
13, 0.00000, 1265.69, -167.865, 1084.26, -170.545, 1190.12, -168.864
14, 0.00000, 1207.38, -168.591, 1034.22, -171.412, 1143.37, -169.542
15, 0.00000, 1181.92, -168.902, 986.544, -172.279, 1116.91, -169.916
16, 0.00000, 1191.78, -168.818, 1028.68, -171.515, 1146.9, -169.507
17, 0.00000, 1144.02, -169.422, 962.222, -172.76, 1087.62, -170.357
18, 0.00000, 1084.43, -170.291, 921.42, -173.629, 1048.23, -170.98
19, 0.00000, 1205.95, -168.658, 1071.32, -170.84, 1194.7, -168.879
20, 0.00000, 1230.86, -168.318, 1084.41, -170.598, 1223.39, -168.482
21, 0.00000, 1175.21, -169.009, 1039.69, -171.313, 1152.48, -169.385
22, 0.00000, 1178.35, -168.914, 1034.32, -171.373, 1140.51, -169.498
23, 0.00000, 1104.77, -169.839, 963.066, -172.626, 1077.74, -170.33
24, 0.00000, 1078.45, -170.184, 939.613, -173.068, 1037.3, -170.948
25, 0.00000, 994.75, -171.568, 863.467, -174.814, 942.05, -172.722
26, 0.00000, 954.781, -172.333, 851.022, -175.123, 919.852, -173.19
27, 0.00000, 1009.08, -171.265, 908.127, -173.663, 969.604, -172.11
28, 0.00000, 964.193, -172.113, 868.902, -174.622, 924.085, -173.063
29, 0.00000, 969.547, -172.009, 887.38, -174.148, 948.69, -172.516
30, 0.00000, 964.461, -172.098, 895.986, -173.931, 951.133, -172.451
31, 0.00000, 1059.78, -170.383, 961.448, -172.502, 1023.44, -171.087
32, 0.00000, 1093.34, -169.84, 969.648, -172.329, 1042.37, -170.771
33, 0.00000, 1155.56, -169.005, 1018.15, -171.47, 1121.46, -169.577
34, 0.00000, 1194.41, -168.539, 1043.9, -171.059, 1154.74, -169.156
35, 0.00000, 1185.79, -168.731, 1036.07, -171.269, 1153.21, -169.258
36, 0.00000, 1192.36, -168.711, 1034.45, -171.349, 1150.6, -169.352
37, 0.00000, 1177.83, -168.946, 997.347, -172.069, 1118.1, -169.871
38, 0.00000, 1214.94, -168.552, 1043.93, -171.296, 1173.47, -169.177
39, 0.00000, 1224.53, -168.484, 1028.33, -171.594, 1168.62, -169.294
40, 0.00000, 1200.27, -168.795, 993.089, -172.271, 1120.86, -169.996
41, 0.00000, 1108.26, -170.053, 925.867, -173.626, 1060.53, -170.923
42, 0.00000, 1141.69, -169.575, 949.81, -173.129, 1077.22, -170.662
43, 0.00000, 1170.66, -169.173, 990.444, -172.323, 1117.78, -170.021
44, 0.00000, 1129.68, -169.687, 958.344, -172.925, 1077.32, -170.583
45, 0.00000, 1162.78, -169.243, 989.383, -172.314, 1115.54, -170.002
46, 0.00000, 1064.85, -170.6, 912.089, -173.841, 1028.8, -171.304
47, 0.00000, 1079.82, -170.289, 925.67, -173.484, 1014.71, -171.486
48, 0.00000, 1045.65, -170.772, 900.337, -174.01, 992.825, -171.828
49, 0.00000, 974.519, -172.006, 843.115, -175.408, 921.379, -173.239
50, 0.00000, 942.652, -172.618, 820.287, -176.025, 894.157, -173.828
51, 0.00000, 920.678, -173.061, 803.676, -176.491, 870.392, -174.389
52, 0.00000, 897.119, -173.597, 791.385, -176.864, 855.786, -174.749
53, 0.00000, 857.073, -174.586, 761.998, -177.822, 829.18, -175.472
54, 0.00000, 879.414, -174, 774.109, -177.416, 838.336, -175.209
55, 0.00000, 896.471, -173.607, 810.225, -176.266, 883.561, -174.035
56, 0.00000, 981.425, -171.795, 843.736, -175.329, 915.964, -173.299
57, 0.00000, 1033.52, -170.882, 877.881, -174.462, 985.839, -171.873
58, 0.00000, 1094.36, -169.951, 914.572, -173.643, 1035.33, -171.037
59, 0.00000, 1157.5, -169.138, 982.251, -172.282, 1081.51, -170.368
60, 0.00000, 1154.44, -169.249, 980.097, -172.379, 1097.19, -170.19
61, 0.00000, 1203.4, -168.677, 1015.11, -171.778, 1125.4, -169.838
62, 0.00000, 1182.43, -168.994, 972.999, -172.619, 1112.81, -170.09
63, 0.00000, 1189.92, -168.931, 972.349, -172.666, 1098.93, -170.327
64, 0.00000, 1184.31, -169.044, 959.852, -172.934, 1087.56, -170.534
65, 0.00000, 1190.21, -168.978, 955.324, -173.049, 1099.32, -170.382
66, 0.00000, 1138.6, -169.627, 924.545, -173.684, 1060.6, -170.953
67, 0.00000, 1201.69, -168.821, 1007.29, -172.053, 1130.44, -169.895
68, 0.00000, 1188.71, -168.949, 1002.66, -172.084, 1115.44, -170.06
69, 0.00000, 1193.33, -168.889, 1014.38, -171.864, 1114.62, -170.059
70, 0.00000, 1099.66, -170.086, 924.342, -173.586, 1009.58, -171.685
71, 0.00000, 1105.11, -169.949, 939.146, -173.239, 1028.44, -171.311
72, 0.00000, 1037.35, -170.968, 881.031, -174.512, 970.201, -172.327
73, 0.00000, 979.589, -171.964, 836.442, -175.621, 933.646, -173.02
74, 0.00000, 970.737, -172.098, 835.901, -175.617, 923.338, -173.214
75, 0.00000, 954.462, -172.387, 824.033, -175.931, 895.746, -173.822
76, 0.00000, 911.17, -173.304, 784.703, -177.103, 861.916, -174.633
77, 0.00000, 922.912, -173.04, 801.49, -176.585, 886.821, -174.006
78, 0.00000, 940.51, -172.621, 810.512, -176.301, 890.644, -173.89
79, 0.00000, 966.148, -172.085, 831.341, -175.673, 916.646, -173.27
80, 0.00000, 972.922, -171.962, 840.747, -175.436, 925.637, -173.09
81, 0.00000, 987.302, -171.736, 830.909, -175.746, 926.357, -173.125
82, 0.00000, 1013.18, -171.337, 858.693, -175.045, 964.359, -172.397
83, 0.00000, 1105.96, -169.907, 920.795, -173.628, 1046.9, -170.972
84, 0.00000, 1101.7, -169.988, 919.552, -173.658, 1051.37, -170.895
85, 0.00000, 1079.79, -170.287, 883.757, -174.474, 1011.57, -171.576
86, 0.00000, 1060.76, -170.591, 892.452, -174.24, 1012.13, -171.544
87, 0.00000, 1053.56, -170.724, 899.233, -174.088, 1002.83, -171.733
88, 0.00000, 1110.04, -169.831, 942.893, -173.123, 1055.38, -170.811
89, 0.00000, 1084.14, -170.223, 937.696, -173.226, 1068.73, -170.586
90, 0.00000, 1136.79, -169.453, 989.765, -172.172, 1092.63, -170.201
91, 0.00000, 1182, -168.831, 1023.69, -171.534, 1142.74, -169.447
92, 0.00000, 1183.63, -168.802, 1032.35, -171.381, 1143, -169.444
93, 0.00000, 1194.98, -168.651, 1040.53, -171.23, 1135.82, -169.55
94, 0.00000, 1181.64, -168.815, 1038.76, -171.247, 1136.53, -169.513
95, 0.00000, 1128.76, -169.499, 1016.43, -171.609, 1091.51, -170.144
96, 0.00000, 1148.06, -169.198, 1012.07, -171.667, 1094.29, -170.077
97, 0.00000, 1114.21, -169.618, 978.539, -172.265, 1057.96, -170.613
98, 0.00000, 1032.14, -170.9, 903.379, -173.858, 993.773, -171.704
99, 0.00000, 1062.73, -170.38, 958.441, -172.625, 1022.69, -171.166
100, 0.00000, 1019.36, -171.092, 917.573, -173.472, 976.933, -171.983
101, 0.00000, 1035.57, -170.815, 941.466, -172.941, 1009.75, -171.357
102, 0.00000, 1122.39, -169.418, 1014.45, -171.472, 1089.43, -169.983
103, 0.00000, 1165.21, -168.82, 1062.06, -170.647, 1143.3, -169.18
104, 0.00000, 1313.09, -167.107, 1195.45, -168.735, 1268.1, -167.653
105, 0.00000, 1295.76, -167.317, 1158.26, -169.259, 1243.87, -167.958
106, 0.00000, 1362.54, -166.692, 1207.61, -168.668, 1304.48, -167.341
107, 0.00000, 1394.36, -166.445, 1249.7, -168.188, 1363.04, -166.796
108, 0.00000, 1397.75, -166.422, 1248.42, -168.208, 1340.88, -166.999
109, 0.00000, 1436.98, -166.15, 1279.77, -167.909, 1401.12, -166.5
110, 0.00000, 1421.4, -166.328, 1261.49, -168.188, 1366.66, -166.897
111, 0.00000, 1456.4, -166.088, 1269.45, -168.172, 1381.96, -166.838
112, 0.00000, 1501.53, -165.829, 1307.59, -167.849, 1424.61, -166.545
113, 0.00000, 1485.33, -165.948, 1312.63, -167.782, 1442.45, -166.373
114, 0.00000, 1483.11, -165.977, 1314.31, -167.761, 1440.09, -166.406
115, 0.00000, 1502.05, -165.703, 1353.04, -167.23, 1466.62, -166.036
116, 0.00000, 1454.3, -166.075, 1310.28, -167.65, 1424.3, -166.378
117, 0.00000, 1386.64, -166.668, 1258.6, -168.203, 1315.86, -167.421
118, 0.00000, 1359.72, -166.891, 1236.77, -168.441, 1321.9, -167.315
119, 0.00000, 1341.19, -167.006, 1208.08, -168.735, 1269.68, -167.821
120, 0.00000, 1276.92, -167.615, 1154.05, -169.378, 1229.28, -168.223
121, 0.00000, 1246.68, -167.913, 1120.19, -169.841, 1188.59, -168.698
122, 0.00000, 1162.09, -168.94, 1049.85, -170.922, 1113.33, -169.704
123, 0.00000, 1152.76, -169.028, 1050.15, -170.872, 1104.42, -169.801
124, 0.00000, 1089.88, -169.923, 995.616, -171.836, 1049.14, -170.66
125, 0.00000, 1115.19, -169.52, 1001.98, -171.712, 1059.24, -170.488
126, 0.00000, 1130.74, -169.283, 1029.99, -171.183, 1096.96, -169.852
127, 0.00000, 1194.43, -168.436, 1098.48, -170.062, 1156.36, -169.005
128, 0.00000, 1200.82, -168.367, 1079.76, -170.385, 1173.73, -168.778
129, 0.00000, 1363.79, -166.641, 1215.63, -168.533, 1304, -167.3
130, 0.00000, 1320.84, -167.151, 1190.66, -168.92, 1284.25, -167.603
131, 0.00000, 1429.7, -166.22, 1267.06, -168.101, 1377.21, -166.772
132, 0.00000, 1417.99, -166.413, 1238.27, -168.512, 1353.71, -167.079
133, 0.00000, 1416.83, -166.511, 1264.32, -168.288, 1369.5, -167.021
134, 0.00000, 1432.28, -166.446, 1236.06, -168.691, 1356.55, -167.233
135, 0.00000, 1425.7, -166.583, 1246.75, -168.633, 1368.73, -167.177
136, 0.00000, 1329.51, -167.476, 1168.63, -169.602, 1268.52, -168.199
137, 0.00000, 1385.75, -166.964, 1198.05, -169.232, 1302.88, -167.856
138, 0.00000, 1430.17, -166.576, 1235.05, -168.797, 1369.89, -167.22
139, 0.00000, 1388.05, -166.932, 1199.08, -169.208, 1331.44, -167.554
140, 0.00000, 1366.47, -167.079, 1191.99, -169.248, 1308.88, -167.712
141, 0.00000, 1402.27, -166.765, 1215.21, -168.964, 1335.14, -167.474
142, 0.00000, 1332.9, -167.337, 1137.96, -169.901, 1253.89, -168.251
143, 0.00000, 1291.96, -167.698, 1132.59, -169.924, 1227.33, -168.5
144, 0.00000, 1215.78, -168.468, 1061.56, -170.93, 1166.46, -169.164
145, 0.00000, 1151.32, -169.236, 1004.02, -171.878, 1103.21, -170.007
146, 0.00000, 1138.62, -169.355, 991.474, -172.07, 1076.11, -170.386
147, 0.00000, 1056.54, -170.555, 919.475, -173.527, 1011.58, -171.433
148, 0.00000, 1112.27, -169.691, 997.552, -171.91, 1078.04, -170.297
149, 0.00000, 1103.61, -169.78, 983.057, -172.161, 1062.83, -170.515
150, 0.00000, 1146.94, -169.153, 1028.66, -171.312, 1122.27, -169.586
151, 0.00000, 1279.49, -167.556, 1141.33, -169.559, 1236.62, -168.124
152, 0.00000, 1354.08, -166.835, 1188.34, -168.961, 1283.85, -167.634
153, 0.00000, 1414.45, -166.342, 1239.95, -168.386, 1332.01, -167.201
154, 0.00000, 1459.16, -166.032, 1250.24, -168.342, 1364.42, -166.981
155, 0.00000, 1439.26, -166.31, 1242.12, -168.529, 1346.48, -167.242
156, 0.00000, 1432.11, -166.449, 1232.74, -168.696, 1344.86, -167.342
157, 0.00000, 1391.06, 177.651, 1206.29, 172.364, 1305.37, 175.523
158, 0.00000, 1389.76, 177.64, 1201.17, 172.246, 1318.25, 175.864
159, 0.00000, 1360.15, 176.979, 1176.93, 171.523, 1287.48, 175.105
160, 0.00000, 1353.27, 176.837, 1157.13, 170.869, 1277.57, 174.873
161, 0.00000, 1293.5, 175.369, 1109.8, 169.122, 1234.89, 173.695
162, 0.00000, 1357.14, 176.929, 1161.03, 170.977, 1288.59, 175.188
163, 0.00000, 1399.66, 177.837, 1206.34, 172.441, 1322.83, 176.043
164, 0.00000, 1318.43, 175.936, 1145.28, 170.387, 1265.37, 174.517
165, 0.00000, 1352.54, 176.774, 1167.79, 171.186, 1285.5, 175.044
166, 0.00000, 1284.29, 175.016, 1111.94, 169.083, 1220.07, 173.14
167, 0.00000, 1235.38, 173.59, 1084.81, 167.882, 1185.11, 171.947
168, 0.00000, 1165.65, 171.251, 1045.39, 166.04, 1130.73, 169.968
169, 0.00000, 1115.63, -169.747, 964.092, -172.672, 1058.63, -170.734
170, 0.00000, 1103.04, -169.912, 969.916, -172.525, 1051.88, -170.821
171, 0.00000, 1101.66, -169.881, 958.326, -172.726, 1034.38, -171.077
172, 0.00000, 1083.4, -170.15, 953.229, -172.816, 1039.89, -170.961
173, 0.00000, 1039.88, -170.832, 923.037, -173.447, 994.407, -171.759
174, 0.00000, 1112.47, -169.673, 980.896, -172.228, 1057.38, -170.637
175, 0.00000, 1209.18, -168.395, 1077.89, -170.538, 1158.46, -169.146
176, 0.00000, 1276.51, -167.666, 1120.04, -169.93, 1227.04, -168.321
177, 0.00000, 1381.1, -166.682, 1191.33, -169.018, 1322.78, -167.34
178, 0.00000, 1382.31, -166.757, 1179.29, -169.246, 1301.89, -167.645
179, 0.00000, 1437.27, -166.388, 1223.33, -168.805, 1374.46, -167.04
180, 0.00000, 1475.93, 179.403, 1285.56, 174.699, 1412.69, 178.062
181, 0.00000, 1357.02, 176.882, 1187.13, 171.795, 1319.91, 175.926
182, 0.00000, 1409.97, 178.114, 1202.08, 172.315, 1355.63, 176.814
183, 0.00000, 1378.88, 177.433, 1179.73, 171.648, 1316.51, 175.884
184, 0.00000, 1360.13, 177.026, 1154.62, 170.802, 1289.92, 175.226
185, 0.00000, 1340.52, 176.563, 1135.15, 170.131, 1269.55, 174.717
186, 0.00000, 1353.8, 176.872, 1155.78, 170.862, 1277.49, 174.917
187, 0.00000, 1411.17, 178.085, 1239.33, 173.483, 1363.06, 177
188, 0.00000, 1404.23, 177.952, 1203.08, 172.327, 1337.26, 176.383
189, 0.00000, 1407.71, 178.013, 1231.58, 173.228, 1335.17, 176.323
190, 0.00000, 1347.96, 176.652, 1171.08, 171.262, 1275.56, 174.774
191, 0.00000, 1349.24, 176.639, 1181.99, 171.539, 1288.47, 175.046
192, 0.00000, 1309.96, 175.624, 1152.29, 170.432, 1255.04, 174.088
193, 0.00000, 1211.16, 172.734, 1077.52, 167.458, 1175.62, 171.525
194, 0.00000, 1217.95, 172.932, 1077.89, 167.393, 1170.49, 171.307
195, 0.00000, 1195.25, -168.653, 1038.63, -171.266, 1129.22, -169.645
196, 0.00000, 1216.06, -168.363, 1057, -170.932, 1154.1, -169.266
197, 0.00000, 1231.22, -168.196, 1097.38, -170.294, 1186.45, -168.846
198, 0.00000, 1266.06, -167.793, 1119.56, -169.951, 1219.17, -168.433
199, 0.00000, 1393.01, -166.537, 1221.55, -168.611, 1339.27, -167.136
200, 0.00000, 1444.19, -166.134, 1274.57, -168.026, 1378.29, -166.79
201, 0.00000, 1469.77, -165.931, 1296.48, -167.798, 1415.46, -166.457
202, 0.00000, 1480.44, -165.898, 1284.28, -167.994, 1401.29, -166.662
203, 0.00000, 1529.06, -165.642, 1320.9, -167.705, 1454.37, -166.318
204, 0.00000, 1423.07, -166.549, 1230.07, -168.753, 1368.36, -167.135
205, 0.00000, 1423.85, -166.561, 1220.46, -168.891, 1332.39, -167.52
206, 0.00000, 1330.3, -167.286, 1129.52, -169.97, 1252.51, -168.22
207, 0.00000, 1307.16, -167.458, 1134.09, -169.843, 1258.78, -168.068
208, 0.00000, 1246.26, -168.111, 1077.45, -170.668, 1196.42, -168.796
209, 0.00000, 1203.95, -168.577, 1034.35, -171.355, 1158.29, -169.264
210, 0.00000, 1188.06, -168.75, 1014.62, -171.695, 1146.65, -169.405
211, 0.00000, 1242.28, -168.128, 1091.55, -170.437, 1201.75, -168.715
212, 0.00000, 1178.9, -168.869, 1028.71, -171.438, 1164.95, -169.143
213, 0.00000, 1151.56, -169.26, 1015.83, -171.685, 1120, -169.79
214, 0.00000, 1097.59, -170.009, 967.245, -172.576, 1092.46, -170.163
215, 0.00000, 1103.01, -169.868, 959.986, -172.681, 1066.66, -170.523
216, 0.00000, 1101.54, -169.854, 964.773, -172.548, 1038.93, -170.955
217, 0.00000, 1045.27, -170.692, 907.124, -173.763, 1001.72, -171.565
218, 0.00000, 1010.95, -171.263, 886.85, -174.229, 959.19, -172.373
219, 0.00000, 983.573, -171.766, 862.33, -174.824, 937.143, -172.823
220, 0.00000, 971.619, -171.961, 858.904, -174.896, 929.3, -172.971
221, 0.00000, 965.019, -172.087, 841.33, -175.369, 922.554, -173.118
222, 0.00000, 979.113, -171.813, 850.223, -175.137, 942.853, -172.674
223, 0.00000, 1007.63, -171.291, 885.994, -174.21, 972.915, -172.059
224, 0.00000, 1065.71, -170.304, 920.261, -173.424, 1016.41, -171.256
225, 0.00000, 1059.49, -170.407, 894.996, -174.013, 999.77, -171.568
226, 0.00000, 1140.29, -169.231, 960.364, -172.609, 1068.99, -170.42
227, 0.00000, 1179.28, -168.766, 999.311, -171.894, 1121.82, -169.67
228, 0.00000, 1204.03, -168.538, 1004.04, -171.874, 1115.86, -169.852
229, 0.00000, 1256.87, -167.989, 1062.05, -170.936, 1173.93, -169.124
230, 0.00000, 1233.62, -168.281, 1041.15, -171.31, 1155.38, -169.394
231, 0.00000, 1265.41, -168.024, 1091.16, -170.574, 1188.16, -169.066
232, 0.00000, 1294.23, -167.775, 1082.03, -170.774, 1210.67, -168.845
233, 0.00000, 1280.46, -167.904, 1106.48, -170.377, 1217.05, -168.731
234, 0.00000, 1336.98, -167.322, 1164.23, -169.562, 1293.5, -167.857
235, 0.00000, 1340.31, -167.255, 1175.82, -169.382, 1312.45, -167.627
236, 0.00000, 1316.42, -167.482, 1131.98, -169.97, 1266.19, -168.103
237, 0.00000, 1344.43, -167.201, 1172.8, -169.415, 1281.22, -167.934
238, 0.00000, 1292.89, -167.661, 1150.29, -169.653, 1235.16, -168.391
239, 0.00000, 1303.56, -167.481, 1135.25, -169.811, 1225.92, -168.426
240, 0.00000, 1247.42, -168.016, 1098.39, -170.282, 1184.14, -168.879
241, 0.00000, 1171.66, -168.905, 1053.79, -170.95, 1117.22, -169.755
242, 0.00000, 1151.52, -169.123, 1030.37, -171.303, 1110.28, -169.794
243, 0.00000, 1144.65, -169.212, 1043.31, -171.063, 1124.7, -169.565
244, 0.00000, 1151.27, -169.097, 1040, -171.107, 1114.26, -169.705
245, 0.00000, 1136.37, -169.293, 1019.72, -171.468, 1088.22, -170.1
246, 0.00000, 1199.32, -168.441, 1091.47, -170.243, 1159.99, -169.046
247, 0.00000, 1228.33, -168.1, 1096.44, -170.189, 1177.17, -168.826
248, 0.00000, 1318.62, -167.145, 1175.11, -169.1, 1249.16, -167.99
249, 0.00000, 1363.58, -166.741, 1197.48, -168.831, 1298.14, -167.476
250, 0.00000, 1404.28, -166.474, 1240.29, -168.409, 1328.4, -167.288
251, 0.00000, 1426.6, -166.363, 1232.66, -168.586, 1337.45, -167.281
252, 0.00000, 1393.17, -166.739, 1205.77, -168.982, 1323.67, -167.501
253, 0.00000, 1324.61, -167.456, 1122.68, -170.175, 1240.21, -168.502
254, 0.00000, 1340.73, 176.49, 1154.54, 170.69, 1264.59, 174.442
255, 0.00000, 1308.7, 175.737, 1129.85, 169.853, 1238.23, 173.716
256, 0.00000, 1267.43, 174.68, 1084.02, 168.08, 1184.87, 172.113
257, 0.00000, 1247.63, 174.128, 1068.82, 167.481, 1175.51, 171.853
258, 0.00000, 1265.69, 174.613, 1088.96, 168.261, 1189.95, 172.288
259, 0.00000, 1350.68, 176.723, 1177.42, 171.465, 1284.87, 175.02
260, 0.00000, 1368.19, 177.136, 1177.77, 171.442, 1282.83, 174.944
261, 0.00000, 1360.14, 176.924, 1204.94, 172.396, 1285.95, 175.044
262, 0.00000, 1416.97, 178.16, 1252.72, 173.774, 1335.34, 176.253
263, 0.00000, 1347.74, 176.59, 1183.03, 171.525, 1264.09, 174.355
264, 0.00000, 1317.55, 175.789, 1179.42, 171.37, 1245.61, 173.76
265, 0.00000, 1233.04, 173.422, 1091.19, 167.959, 1162.67, 171.04
266, 0.00000, 1285.31, 174.866, 1145.85, 170.072, 1216.98, 172.794
267, 0.00000, 1232.14, 173.306, 1101.66, 168.341, 1170.52, 171.244
268, 0.00000, 1163.19, -169.055, 1025.47, -171.466, 1112.3, -169.852
269, 0.00000, 1195.73, -168.606, 1050.87, -171.036, 1131.4, -169.574
270, 0.00000, 1260.39, -167.832, 1114.56, -170.006, 1217.47, -168.419
271, 0.00000, 1345.34, -166.952, 1207.61, -168.732, 1326.63, -167.192
272, 0.00000, 1391.85, -166.563, 1232.31, -168.501, 1328.71, -167.248
273, 0.00000, 1438.28, -166.241, 1262.84, -168.218, 1384.8, -166.789
274, 0.00000, 1425.35, -166.443, 1237.31, -168.602, 1353.75, -167.199
275, 0.00000, 1493.41, -165.983, 1291.03, -168.105, 1409.64, -166.786
276, 0.00000, 1420.42, 178.25, 1231.38, 173.129, 1355.23, 176.754
277, 0.00000, 1351.6, 176.739, 1176.84, 171.445, 1293.15, 175.246
278, 0.00000, 1361.94, 177.005, 1179.54, 171.592, 1295.94, 175.35
279, 0.00000, 1337.41, 176.452, 1159.17, 170.968, 1271.52, 174.708
280, 0.00000, 1345.1, 176.631, 1166.96, 171.241, 1271.23, 174.733
281, 0.00000, 1283.14, 175.087, 1107.48, 169.092, 1207.29, 172.888
282, 0.00000, 1288.17, 175.214, 1109.01, 169.128, 1237.95, 173.804
283, 0.00000, 1359.12, 176.933, 1186.55, 171.797, 1297.6, 175.373
284, 0.00000, 1334.34, 176.326, 1165.46, 171.088, 1291.72, 175.23
285, 0.00000, 1343.22, 176.545, 1166.26, 171.147, 1275.6, 174.809
286, 0.00000, 1286.82, 175.103, 1118.51, 169.377, 1216.13, 173.059
287, 0.00000, 1268.29, 174.554, 1101.96, 168.632, 1200.89, 172.519
288, 0.00000, 1239.02, 173.673, 1081.32, 167.721, 1164.63, 171.27
289, 0.00000, 1223.17, 173.155, 1069.97, 167.135, 1153.06, 170.781
290, 0.00000, 1210.67, 172.714, 1069.08, 167.042, 1151.3, 170.661
291, 0.00000, 1130.51, -169.544, 974.388, -172.467, 1071.1, -170.535
