Element, I1_1, Ang1_1, I1_2, Ang1_2, I1_3, Ang1_3, I1_4, Ang1_4, Iresid1, AngResid1, I2_1, Ang2_1, I2_2, Ang2_2, I2_3, Ang2_3, I2_4, Ang2_4, Iresid2, AngResid2
Vsource.SOURCE,    655.113,   158.43,    424.353,    40.73,    522.252,   -78.45,          0,     0.00,    183.168,   178.11,    655.113,   -21.57,    424.353,  -139.27,    522.252,   101.55,          0,     0.00,    183.168,    -1.89
Transformer.REG1A,    655.113,   -21.57,    424.353,  -139.27,    522.252,   101.55,    183.168,   178.11, 1.97906E-009,     0.00,    631.435,   158.43,    409.015,    40.73,    503.375,   -78.45,    176.547,    -1.89, 2.32831E-010,   180.00
Line.L115,    631.435,   -21.57,    409.015,  -139.27,    503.375,   101.55,          0,     0.00,    176.547,    -1.89,    631.435,   158.43,    409.016,    40.73,    503.376,   -78.45,          0,     0.00,    176.547,   178.11
Line.L1,    8.99596,  -146.88,          0,     0.00,          0,     0.00,          0,     0.00,    8.99596,  -146.88,    8.99613,    33.11,          0,     0.00,          0,     0.00,          0,     0.00,    8.99613,    33.11
Line.L2,    46.5698,    93.00,          0,     0.00,          0,     0.00,          0,     0.00,    46.5698,    93.00,    46.5701,   -87.00,          0,     0.00,          0,     0.00,          0,     0.00,    46.5701,   -87.00
Line.L3,    613.359,   -21.40,    400.101,  -139.10,    457.376,   102.42,          0,     0.00,    174.704,   -12.94,     613.36,   158.60,    400.101,    40.90,    457.376,   -77.58,          0,     0.00,    174.704,   167.06
Line.L4,    18.1404,    93.01,          0,     0.00,          0,     0.00,          0,     0.00,    18.1404,    93.01,    18.1406,   -86.99,          0,     0.00,          0,     0.00,          0,     0.00,    18.1406,   -86.99
Line.L5,    28.4296,    92.99,          0,     0.00,          0,     0.00,          0,     0.00,    28.4296,    92.99,    28.4299,   -87.01,          0,     0.00,          0,     0.00,          0,     0.00,    28.4299,   -87.01
Line.L6,     19.113,    92.99,          0,     0.00,          0,     0.00,          0,     0.00,     19.113,    92.99,    19.1132,   -87.01,          0,     0.00,          0,     0.00,          0,     0.00,    19.1132,   -87.01
Line.L7,    604.249,   -21.31,    400.101,  -139.10,    457.376,   102.42,          0,     0.00,    165.856,   -12.13,    604.249,   158.69,    400.101,    40.90,    457.376,   -77.58,          0,     0.00,    165.856,   167.87
Line.L8,     9.0214,  -147.30,          0,     0.00,          0,     0.00,          0,     0.00,     9.0214,  -147.30,    9.02161,    32.69,          0,     0.00,          0,     0.00,          0,     0.00,    9.02161,    32.69
Line.L9,    46.5413,   -28.06,          0,     0.00,          0,     0.00,          0,     0.00,    46.5413,   -28.06,    46.5415,   151.94,          0,     0.00,          0,     0.00,          0,     0.00,    46.5415,   151.94
Line.L10,    558.057,   -20.74,    391.174,  -138.91,    457.376,   102.42,          0,     0.00,    128.925,    -3.60,    558.058,   159.26,    391.175,    41.09,    457.377,   -77.58,          0,     0.00,    128.925,   176.40
Line.L11,     28.071,   -28.07,          0,     0.00,          0,     0.00,          0,     0.00,     28.071,   -28.07,    28.0714,   151.93,          0,     0.00,          0,     0.00,          0,     0.00,    28.0714,   151.93
Line.L12,    46.4985,    92.32,          0,     0.00,          0,     0.00,          0,     0.00,    46.4985,    92.32,    46.4987,   -87.68,          0,     0.00,          0,     0.00,          0,     0.00,    46.4987,   -87.68
Line.L13,      229.2,   -30.43,    155.512,  -155.12,    153.757,    88.65,          0,     0.00,    66.3022,   -24.78,    229.201,   149.57,    155.513,    24.88,    153.759,   -91.36,          0,     0.00,     66.302,   155.22
Line.L14,    18.7547,   -28.08,          0,     0.00,          0,     0.00,          0,     0.00,    18.7547,   -28.08,    18.7549,   151.92,          0,     0.00,          0,     0.00,          0,     0.00,    18.7549,   151.92
Line.L15,    9.31672,   -28.07,          0,     0.00,          0,     0.00,          0,     0.00,    9.31672,   -28.07,    9.31695,   151.93,          0,     0.00,          0,     0.00,          0,     0.00,    9.31695,   151.93
Line.L16,    18.4164,    92.30,          0,     0.00,          0,     0.00,          0,     0.00,    18.4164,    92.30,    18.4167,   -87.70,          0,     0.00,          0,     0.00,          0,     0.00,    18.4167,   -87.70
Line.L17,     9.2033,    92.32,          0,     0.00,          0,     0.00,          0,     0.00,     9.2033,    92.32,    9.20363,   -87.69,          0,     0.00,          0,     0.00,          0,     0.00,    9.20363,   -87.69
Line.L18,    37.4184,   -28.90,          0,     0.00,          0,     0.00,          0,     0.00,    37.4184,   -28.90,    37.4186,   151.10,          0,     0.00,          0,     0.00,          0,     0.00,    37.4186,   151.10
Line.L19,    55.9657,   -29.07,    19.1045,  -147.80,    55.7575,    92.22,          0,     0.00,    35.6649,    30.95,    55.9661,   150.93,    19.1048,    32.20,     55.758,   -87.78,          0,     0.00,    35.6649,  -149.05
Line.L20,    18.6336,   -28.91,          0,     0.00,          0,     0.00,          0,     0.00,    18.6336,   -28.91,    18.6339,   151.09,          0,     0.00,          0,     0.00,          0,     0.00,    18.6339,   151.09
Line.L21,    19.1067,  -147.81,          0,     0.00,          0,     0.00,          0,     0.00,    19.1067,  -147.81,    19.1071,    32.19,          0,     0.00,          0,     0.00,          0,     0.00,    19.1071,    32.19
Line.L22,    55.9661,   -29.07, 0.00462794,   -34.79,     55.758,    92.22,          0,     0.00,    54.7686,    31.38,    55.9665,   150.93, 0.00389347,   145.21,    55.7585,   -87.78,          0,     0.00,    54.7686,  -148.62
Line.L23,    18.5784,    92.22,          0,     0.00,          0,     0.00,          0,     0.00,    18.5784,    92.22,    18.5789,   -87.79,          0,     0.00,          0,     0.00,          0,     0.00,    18.5789,   -87.79
Line.L24,    55.9665,   -29.07, 0.00389347,   -34.79,    37.1801,    92.23,          0,     0.00,    48.5078,    11.84,    55.9668,   150.93, 0.00308548,   145.21,    37.1806,   -87.78,          0,     0.00,    48.5077,  -168.16
Line.L25,    18.6329,   -29.09,    18.5908,    92.22,          0,     0.00,          0,     0.00,    18.2409,    31.45,    18.6332,   150.91,    18.5914,   -87.78,          0,     0.00,          0,     0.00,    18.2412,  -148.55
Line.L26,     37.101,   -29.06, 0.00308548,   -34.79,    18.5897,    92.23,          0,     0.00,    31.7151,     1.00,    37.1012,   150.94, 0.00249779,   145.21,    18.5901,   -87.78,          0,     0.00,    31.7151,  -179.00
Line.L27,    18.6332,   -29.09, 0.000725845,  -142.24,          0,     0.00,          0,     0.00,    18.6329,   -29.10,    18.6334,   150.90, 7.27596E-012,    90.00,          0,     0.00,          0,     0.00,    18.6334,   150.90
Line.L28,    18.5918,    92.22,          0,     0.00,          0,     0.00,          0,     0.00,    18.5918,    92.22,     18.592,   -87.78,          0,     0.00,          0,     0.00,          0,     0.00,     18.592,   -87.78
Line.L29,    18.6334,   -29.10,          0,     0.00,          0,     0.00,          0,     0.00,    18.6334,   -29.10,    18.6339,   150.90,          0,     0.00,          0,     0.00,          0,     0.00,    18.6339,   150.90
Line.L30,    18.4673,   -29.07, 0.00249779,   -34.79,    18.5901,    92.22,          0,     0.00,    18.1666,    31.91,    18.4677,   150.93, 0.00161622,   145.21,    18.5906,   -87.78,          0,     0.00,    18.1665,  -148.09
Line.L31, 0.00186877,    83.51, 0.00161622,   -34.79,    18.5906,    92.22,          0,     0.00,    18.5915,    92.22, 0.000679561,   -96.49, 0.000587715,   145.21,    18.5913,   -87.78,          0,     0.00,    18.5916,   -87.78
Line.L32, 0.000679561,    83.51, 0.000587715,   -34.79, 0.000641241,  -143.64,          0,     0.00, 5.90344E-005,   -43.06, 1.67703E-011,   167.47, 1.85501E-011,  -168.69, 1.62695E-011,  -116.57,          0,     0.00, 4.42953E-011,  -160.82
Line.L33,    9.29769,    92.22,          0,     0.00,          0,     0.00,          0,     0.00,    9.29769,    92.22,    9.29797,   -87.79,          0,     0.00,          0,     0.00,          0,     0.00,    9.29797,   -87.79
Line.L34,    27.6196,    92.31,          0,     0.00,          0,     0.00,          0,     0.00,    27.6196,    92.31,    27.6197,   -87.69,          0,     0.00,          0,     0.00,          0,     0.00,    27.6197,   -87.69
Line.L35,    18.4238,   -28.98,    18.4263,  -147.93,          0,     0.00,          0,     0.00,    18.7177,   -88.46,    18.4248,   151.01,    18.4268,    32.07,          0,     0.00,          0,     0.00,    18.7182,    91.54
Line.L36,    108.718,   -34.95,    108.381,  -155.43,    98.1723,    86.61,          0,     0.00,    10.0292,  -111.36,    108.719,   145.05,    108.382,    24.57,    98.1726,   -93.39,          0,     0.00,    10.0292,    68.64
Line.L37,    18.4248,   -28.99,          0,     0.00,          0,     0.00,          0,     0.00,    18.4248,   -28.99,    18.4251,   151.01,          0,     0.00,          0,     0.00,          0,     0.00,    18.4251,   151.01
Line.L38,    18.4268,  -147.93,          0,     0.00,          0,     0.00,          0,     0.00,    18.4268,  -147.93,    18.4271,    32.07,          0,     0.00,          0,     0.00,          0,     0.00,    18.4271,    32.07
Line.L39,    9.11012,  -147.94,          0,     0.00,          0,     0.00,          0,     0.00,    9.11012,  -147.94,    9.11042,    32.06,          0,     0.00,          0,     0.00,          0,     0.00,    9.11042,    32.06
Line.L40,    9.27787,    92.17,          0,     0.00,          0,     0.00,          0,     0.00,    9.27787,    92.17,    9.27817,   -87.84,          0,     0.00,          0,     0.00,          0,     0.00,    9.27817,   -87.84
Line.L41,    108.719,   -34.95,    108.382,  -155.43,    88.9429,    86.03,          0,     0.00,    18.9022,  -100.06,    108.719,   145.05,    108.382,    24.57,    88.9432,   -93.97,          0,     0.00,    18.9022,    79.94
Line.L42,    19.0172,  -147.99,          0,     0.00,          0,     0.00,          0,     0.00,    19.0172,  -147.99,    19.0177,    32.00,          0,     0.00,          0,     0.00,          0,     0.00,    19.0177,    32.00
Line.L43,    99.3384,   -35.51,    89.5587,  -157.01,    88.9432,    86.03,          0,     0.00,    6.04636,   -40.84,    99.3388,   144.49,    89.5591,    22.99,    88.9435,   -93.97,          0,     0.00,    6.04637,   139.16
Line.L44,    18.7718,   -29.07,          0,     0.00,          0,     0.00,          0,     0.00,    18.7718,   -29.07,     18.772,   150.93,          0,     0.00,          0,     0.00,          0,     0.00,     18.772,   150.93
Line.L45,    80.7131,   -37.01,    89.5591,  -157.01,    88.9435,    86.03,          0,     0.00,    12.9118,   156.42,    80.7136,   142.99,    89.5595,    22.99,    88.9439,   -93.97,          0,     0.00,    12.9118,   -23.58
Line.L46,    9.45505,   -29.07,          0,     0.00,          0,     0.00,          0,     0.00,    9.45505,   -29.07,    9.45532,   150.93,          0,     0.00,          0,     0.00,          0,     0.00,    9.45532,   150.93
Line.L47,    35.2525,   -38.06,    36.5008,  -157.01,    35.8498,    83.07,          0,     0.00,    1.57164,  -165.29,    35.2527,   141.94,    36.5012,    22.99,      35.85,   -96.93,          0,     0.00,     1.5718,    14.71
Line.L48,    27.5788,   -34.99,    35.1505,  -157.01,     35.366,    90.52,          0,     0.00,    11.6462,   150.02,    27.5789,   145.01,    35.1511,    22.99,    35.3662,   -89.48,          0,     0.00,    11.6463,   -29.98
Line.L49,    9.46041,   -29.09, 0.00316373,    -9.59,    18.6099,    92.03,          0,     0.00,     15.934,    61.47,     9.4605,   150.91, 0.00237285,   170.41,    18.6101,   -87.97,          0,     0.00,    15.9337,  -118.53
Line.L50,     9.4605,   -29.09, 0.00237285,    -9.59, 0.00240233,  -159.82,          0,     0.00,    9.46117,   -29.10,     9.4606,   150.91, 0.00158192,   170.41, 0.00160155,    20.19,          0,     0.00,    9.46104,   150.90
Line.L51, 0.00121777,    69.67, 0.00158192,    -9.59, 0.00160155,  -159.81,          0,     0.00, 0.000579778,    34.17, 7.40637E-008,    -2.52, 1.46969E-008,  -121.42, 1.75715E-008,   118.67,          0,     0.00, 5.79024E-008,    -0.38
Line.L52,    316.295,   -13.27,    245.707,  -128.74,     266.06,   112.11,          0,     0.00,    56.8124,   -18.20,    316.295,   166.73,    245.707,    51.26,     266.06,   -67.89,          0,     0.00,    56.8124,   161.80
Line.L53,    298.287,   -12.29,    245.707,  -128.74,     266.06,   112.11,          0,     0.00,    38.5505,   -12.97,    298.287,   167.71,    245.707,    51.26,     266.06,   -67.89,          0,     0.00,    38.5505,   167.03
Line.L54,    9.23964,   -29.10,    9.06077,  -147.98, 0.00160378,  -155.50,          0,     0.00,     9.3065,   -87.60,    9.24014,   150.89,    9.06113,    32.01, 0.000801897,    24.50,          0,     0.00,    9.30648,    92.40
Line.L55,    289.455,   -11.76,    237.171,  -128.01,     266.06,   112.11,          0,     0.00,    37.1832,     0.99,    289.455,   168.24,    237.172,    51.99,     266.06,   -67.89,          0,     0.00,    37.1831,  -179.01
Line.L56, 0.00087262,    96.07,    9.06113,  -147.99, 0.000801897,  -155.50,          0,     0.00,    9.06155,  -147.99,          0,     0.00,    9.06149,    32.01, 7.27596E-012,   180.00,          0,     0.00,    9.06149,    32.01
Line.L57,    18.4087,  -148.20,          0,     0.00,          0,     0.00,          0,     0.00,    18.4087,  -148.20,     18.409,    31.80,          0,     0.00,          0,     0.00,          0,     0.00,     18.409,    31.80
Line.L58,    289.455,   -11.76,    219.985,  -126.36,     266.06,   112.11,          0,     0.00,    53.8259,    11.08,    289.455,   168.24,    219.985,    53.64,     266.06,   -67.89,          0,     0.00,    53.8258,  -168.92
Line.L59,    9.09204,  -148.20,          0,     0.00,          0,     0.00,          0,     0.00,    9.09204,  -148.20,    9.09227,    31.80,          0,     0.00,          0,     0.00,          0,     0.00,    9.09227,    31.80
Line.L60,  0.0018364,    91.52, 0.00175403,   -40.05, 0.00157568,  -148.95,          0,     0.00, 0.000119493,  -117.84, 1.36852E-005,    88.23, 1.40502E-005,   -30.07, 1.39244E-005,  -150.76,          0,     0.00, 4.62231E-007,   -20.53
Line.L61,    45.3246,   -41.30,    52.1582,  -150.54,     80.691,    92.23,          0,     0.00,    28.9537,   120.06,    45.3292,   138.69,    52.1619,    29.46,    80.6943,   -87.77,          0,     0.00,     28.954,   -59.94
Line.L62,    45.3292,   -41.31,    52.1619,  -150.54,    62.1096,    92.53,          0,     0.00,    15.5286,   155.36,    45.3324,   138.68,    52.1645,    29.45,    62.1119,   -87.47,          0,     0.00,    15.5288,   -24.64
Line.L63,    26.9551,   -49.20,    52.1645,  -150.55,    62.1119,    92.53,          0,     0.00,    34.4861,   152.36,    26.9626,   130.78,    52.1697,    29.44,    62.1164,   -87.48,          0,     0.00,    34.4866,   -27.64
Line.L64,    26.9626,   -49.22,    17.8838,  -157.51,    62.1164,    92.52,          0,     0.00,    34.8377,    92.70,    26.9717,   130.76,    17.8915,    22.46,    62.1219,   -87.49,          0,     0.00,     34.838,   -87.30
Line.L65, 0.00973257,    86.48,  0.0100964,   -31.89,    34.8341,    92.72,          0,     0.00,     34.838,    92.70, 1.87497E-012,    75.96, 6.10108E-012,   116.57,    34.8382,   -87.30,          0,     0.00,    34.8382,   -87.30
Line.L66,    53.8531,   -30.42,          0,     0.00,          0,     0.00,          0,     0.00,    53.8531,   -30.42,    53.8533,   149.58,          0,     0.00,          0,     0.00,          0,     0.00,    53.8533,   149.58
Line.L67,    118.911,    22.97,    125.666,  -107.17,    132.794,   134.07,          0,     0.00,    29.5216,   132.55,    118.911,  -157.03,    125.666,    72.83,    132.793,   -45.93,          0,     0.00,    29.5216,   -47.45
Line.L68,    82.5206,   -30.62,    53.5842,  -148.83,    64.4672,    91.00,          0,     0.00,    24.6188,   -12.44,    82.5209,   149.38,    53.5847,    31.17,    64.4675,   -89.00,          0,     0.00,    24.6188,   167.56
Line.L69,    44.8975,   -30.43,          0,     0.00,          0,     0.00,          0,     0.00,    44.8975,   -30.43,    44.8978,   149.57,          0,     0.00,          0,     0.00,          0,     0.00,    44.8978,   149.57
Line.L70,    26.9561,   -30.44,          0,     0.00,          0,     0.00,          0,     0.00,    26.9561,   -30.44,    26.9565,   149.56,          0,     0.00,          0,     0.00,          0,     0.00,    26.9565,   149.56
Line.L71,    17.9749,   -30.45,          0,     0.00,          0,     0.00,          0,     0.00,    17.9749,   -30.45,    17.9752,   149.55,          0,     0.00,          0,     0.00,          0,     0.00,    17.9752,   149.55
Line.L72,    55.3481,    90.90,          0,     0.00,          0,     0.00,          0,     0.00,    55.3481,    90.90,    55.3484,   -89.11,          0,     0.00,          0,     0.00,          0,     0.00,    55.3484,   -89.11
Line.L73,    118.911,    22.97,    125.666,  -107.17,    99.8836,   156.35,          0,     0.00,    38.6415,  -119.62,    118.911,  -157.03,    125.666,    72.83,    99.8831,   -23.66,          0,     0.00,    38.6415,    60.38
Line.L74,    37.3021,    90.88,          0,     0.00,          0,     0.00,          0,     0.00,    37.3021,    90.88,    37.3024,   -89.12,          0,     0.00,          0,     0.00,          0,     0.00,    37.3024,   -89.12
Line.L75,    18.0962,    90.87,          0,     0.00,          0,     0.00,          0,     0.00,    18.0962,    90.87,    18.0965,   -89.13,          0,     0.00,          0,     0.00,          0,     0.00,    18.0965,   -89.13
Line.L76,    78.1202,    60.57,      78.35,   -56.62,    77.3882,  -177.42,          0,     0.00,    4.27212,   -11.72,    78.1189,  -119.43,    78.3489,   123.38,    77.3869,     2.58,          0,     0.00,    4.27201,   168.28
Line.L77,    32.5469,     5.94,    57.0915,  -129.39,    21.0209,   157.53,          0,     0.00,     40.161,  -125.43,    32.5464,  -174.06,    57.0921,    50.61,    21.0191,   -22.47,          0,     0.00,    40.1612,    54.57
Line.L78,    78.1189,    60.57,    81.0784,   -43.93,    77.3869,  -177.42,          0,     0.00,    21.1653,    23.11,    78.1186,  -119.43,    81.0781,   136.07,    77.3866,     2.58,          0,     0.00,    21.1653,  -156.89
Line.L79,    19.4413,   -30.61, 0.000675948,   -28.98, 0.000800544,  -148.38,          0,     0.00,    19.4416,   -30.61,    19.4416,   149.39, 1.96754E-011,   123.69, 1.45519E-011,    90.00,          0,     0.00,    19.4416,   149.39
Line.L80,    80.8887,    74.48,    81.0774,   -43.93,    77.3859,  -177.42,          0,     0.00,    18.4102,    81.46,    80.8871,  -105.52,     81.076,   136.07,    77.3844,     2.58,          0,     0.00,    18.4102,   -98.54
Line.L81,    80.8871,    74.48,     87.434,   -32.60,    77.3844,  -177.42,          0,     0.00,    32.7342,    56.64,    80.8865,  -105.52,    87.4334,   147.40,    77.3839,     2.58,          0,     0.00,    32.7342,  -123.36
Line.L82,    80.8865,    74.48,    87.4334,   -32.60,    82.8378,  -158.39,          0,     0.00,    18.2926,     0.98,    80.8857,  -105.52,    87.4327,   147.40,     82.837,    21.61,          0,     0.00,    18.2925,  -179.02
Line.L83,    27.0296,    90.62,          0,     0.00,          0,     0.00,          0,     0.00,    27.0296,    90.62,    27.0302,   -89.39,          0,     0.00,          0,     0.00,          0,     0.00,    27.0302,   -89.39
